! TDS: K:\Engsetup\Winsaw\TQQ6103DS
! Channel 2
! Ports=1 2 3 
! FreqRange: 10.0000,6000.0000
! Points=1601
! FailCode=0
! Topology=ALL_SE(123)
# MHz S DB R 50
  10.000000 -0.563897 177.445595 -91.315685 109.877827 -92.997223 116.351489
           -92.313076 98.301800 -0.003570 -1.696945 -113.840588 166.274203
           -95.920440 118.430703 -94.075861 54.731526 -0.002825 -1.016700
  13.743750 -0.572159 176.546883 -87.022081 137.847024 -93.444035 100.276169
           -86.111509 126.147252 -0.005579 -2.289611 -97.871288 54.489808
           -89.326037 117.617990 -99.985186 62.700286 -0.003294 -1.366072
  17.487500 -0.585614 175.643371 -82.715728 146.948037 -90.744830 115.797220
           -84.018442 149.594903 -0.007243 -2.938310 -92.171780 87.561305
           -88.389739 117.856345 -97.868813 54.525550 -0.005054 -1.738859
  21.231250 -0.592239 174.733351 -80.557510 141.580061 -83.794585 156.222395
           -82.108156 136.076290 -0.008492 -3.552446 -93.380318 61.023943
           -84.410149 139.050535 -96.853537 73.620026 -0.005688 -2.113093
  24.975000 -0.602530 173.847932 -79.791596 144.156963 -83.207066 129.610996
           -79.534401 141.965166 -0.005593 -4.163724 -92.599491 83.421938
           -82.740269 135.638969 -97.453216 119.647831 -0.008644 -2.480962
  28.718750 -0.609954 172.950814 -77.165417 148.467650 -82.223734 131.937834
           -77.029927 149.567460 -0.007108 -4.785873 -89.136229 97.771615
           -80.310911 146.410273 -103.752386 89.171913 -0.006370 -2.867721
  32.462500 -0.618199 172.078896 -74.903335 146.182275 -79.039350 143.872350
           -75.199930 149.768452 -0.012810 -5.398589 -93.167301 84.258268
           -79.224821 141.409327 -95.343085 103.290371 -0.008366 -3.231394
  36.206250 -0.632518 171.187296 -73.848172 150.117826 -78.687432 156.777551
           -73.213445 151.597941 -0.012544 -6.020329 -95.205976 56.295615
           -78.117107 144.502861 -90.882375 46.639761 -0.009075 -3.607453
  39.950000 -0.634706 170.325623 -71.968707 146.130959 -76.318382 148.070264
           -71.573847 149.182962 -0.012444 -6.635298 -88.733789 71.902264
           -76.038650 145.871403 -91.622122 72.900514 -0.008352 -3.969309
  43.693750 -0.645172 169.426752 -70.485840 149.250219 -75.822284 151.705462
           -70.482443 150.062137 -0.015032 -7.249386 -93.646943 70.733473
           -74.554770 150.161206 -92.722890 81.240508 -0.009212 -4.349675
  47.437500 -0.653278 168.556058 -69.308411 152.370255 -73.503067 153.423963
           -68.927066 150.351853 -0.017445 -7.859754 -93.533667 101.788887
           -73.426141 149.469487 -89.523611 110.006847 -0.009432 -4.710728
  51.181250 -0.662547 167.689981 -67.834567 150.188886 -72.157120 150.163314
           -67.916236 151.708116 -0.017320 -8.485118 -93.710758 100.462325
           -72.241088 149.965809 -89.498397 46.254601 -0.007854 -5.075193
  54.925000 -0.670576 166.808906 -66.980943 152.974037 -71.322688 151.203794
           -66.683322 150.453079 -0.016846 -9.095809 -89.865949 75.265182
           -71.094050 151.516485 -91.535980 85.848164 -0.008016 -5.442482
  58.668750 -0.679747 165.936494 -65.654886 151.345790 -70.248433 151.100858
           -65.744165 150.742271 -0.017403 -9.727532 -90.028992 83.676838
           -70.590758 150.169761 -88.894453 81.956061 -0.009631 -5.811551
  62.412500 -0.687799 165.061183 -64.506879 151.121440 -69.329294 152.928258
           -64.449590 152.373676 -0.017782 -10.353010 -91.236224 78.818866
           -69.065612 150.683607 -89.022088 67.301743 -0.008722 -6.182984
  66.156250 -0.697355 164.193030 -63.615805 151.215365 -68.091600 151.650827
           -63.590909 150.513745 -0.020213 -10.968517 -87.036748 74.822741
           -68.238646 151.874207 -87.659810 54.256447 -0.008307 -6.562072
  69.900000 -0.703763 163.330840 -62.486170 150.467880 -67.151675 150.863195
           -62.706502 151.090059 -0.021117 -11.593440 -87.081889 82.791051
           -67.288247 152.770284 -86.794006 86.697189 -0.009024 -6.924809
  73.643750 -0.711445 162.429443 -61.723742 150.407480 -66.349671 152.974778
           -61.704376 151.089102 -0.019165 -12.204282 -88.071586 84.268648
           -66.263161 152.068567 -89.164742 71.382489 -0.009509 -7.302156
  77.387500 -0.719742 161.572212 -60.984349 150.103683 -65.634846 151.618533
           -60.918653 150.696367 -0.021125 -12.827297 -88.658688 67.506673
           -65.471416 152.878898 -87.391633 77.452021 -0.010916 -7.671388
  81.131250 -0.730818 160.684887 -60.157966 150.450352 -64.796768 152.978611
           -60.182981 150.069038 -0.021814 -13.433560 -86.840502 92.381952
           -64.601577 152.389181 -87.497875 89.787443 -0.008312 -8.041179
  84.875000 -0.736742 159.808446 -59.338185 149.143675 -64.068500 151.413735
           -59.443044 149.787354 -0.019778 -14.059562 -88.243701 65.909604
           -63.979687 151.446227 -88.564115 78.732372 -0.010037 -8.398121
  88.618750 -0.744595 158.933177 -58.585319 149.415552 -63.205468 152.246451
           -58.673308 150.298252 -0.022846 -14.661059 -88.074542 73.946513
           -63.185669 151.774128 -85.272947 80.378066 -0.008232 -8.781074
  92.362500 -0.756763 158.038462 -57.895777 148.698331 -62.669568 151.574959
           -57.952461 149.530162 -0.023187 -15.279174 -85.984734 71.035539
           -62.541842 151.269784 -89.309595 78.316464 -0.009003 -9.146775
  96.106250 -0.759353 157.146538 -57.300175 148.937395 -61.981857 150.547932
           -57.343213 148.663168 -0.023948 -15.889055 -86.855092 83.150195
           -61.839777 150.743309 -85.738278 77.357155 -0.010553 -9.510378
  99.850000 -0.767885 156.282571 -56.660535 148.120320 -61.286202 150.983768
           -56.654611 148.194396 -0.021941 -16.481996 -84.514981 85.423965
           -61.255779 150.377603 -85.943308 71.968009 -0.011618 -9.895166
 103.593750 -0.778121 155.388656 -55.953116 147.387933 -60.629995 150.533538
           -56.043847 147.558058 -0.024819 -17.110998 -86.561638 83.810225
           -60.662683 149.983303 -85.218902 82.564285 -0.009615 -10.243539
 107.337500 -0.787898 154.496129 -55.448433 147.374852 -60.057206 149.829784
           -55.475974 147.028429 -0.029703 -17.726257 -83.345004 78.008253
           -60.115965 149.170541 -85.086188 74.945753 -0.012019 -10.612855
 111.081250 -0.796844 153.602285 -54.829790 146.875954 -59.456004 149.343357
           -54.889861 147.134014 -0.024953 -18.313745 -85.279348 83.437184
           -59.495900 149.799915 -84.395966 78.340170 -0.012223 -10.990625
 114.825000 -0.805110 152.726139 -54.257106 146.118516 -58.949105 148.817005
           -54.298500 146.401138 -0.025279 -18.927736 -84.355570 71.239784
           -58.962263 149.174092 -83.585004 61.810393 -0.013582 -11.375007
 118.568750 -0.813115 151.805635 -53.736829 145.913445 -58.398469 148.957091
           -53.739575 145.877490 -0.026916 -19.553893 -83.243886 76.584671
           -58.395012 149.095838 -85.130545 76.216378 -0.017385 -11.739913
 122.312500 -0.822073 150.912004 -53.185288 145.030006 -57.731522 149.019980
           -53.201166 145.181840 -0.026436 -20.160679 -83.535870 81.893490
           -57.830199 148.321907 -84.127445 75.504681 -0.013545 -12.098421
 126.056250 -0.830653 149.997465 -52.707064 144.610665 -57.309370 148.177125
           -52.720374 144.866100 -0.027841 -20.769890 -84.705017 83.943049
           -57.365053 148.478232 -84.772846 82.492832 -0.015965 -12.476599
 129.800000 -0.838542 149.094070 -52.165957 143.952137 -56.796170 147.508986
           -52.208668 144.229835 -0.027798 -21.381231 -84.060180 76.833583
           -56.868016 148.502291 -84.835636 88.793145 -0.015596 -12.833797
 133.543750 -0.848141 148.189558 -51.751635 143.397024 -56.287708 147.055987
           -51.690135 143.059855 -0.028359 -22.008301 -84.076045 70.830460
           -56.411773 147.477089 -83.351489 74.188449 -0.016094 -13.220398
 137.287500 -0.855898 147.266061 -51.234922 142.754842 -55.901512 146.980739
           -51.239557 142.977372 -0.030537 -22.629583 -83.321776 77.379384
           -55.890612 147.223428 -84.305900 78.171692 -0.017165 -13.593525
 141.031250 -0.864880 146.346115 -50.782552 142.216854 -55.349492 146.346404
           -50.790127 142.242285 -0.035091 -23.254389 -83.975036 77.622415
           -55.426197 146.476188 -83.129080 76.409771 -0.018934 -13.972479
 144.775000 -0.876888 145.414081 -50.309880 141.426209 -54.959371 145.705346
           -50.362327 141.700717 -0.036743 -23.852259 -82.897911 64.637969
           -54.985351 145.880480 -83.057221 75.280065 -0.020791 -14.354476
 148.518750 -0.882828 144.485139 -49.857991 141.103327 -54.527168 145.522711
           -49.888005 141.044963 -0.033801 -24.479011 -85.233964 70.801440
           -54.570134 145.471424 -82.569397 70.370696 -0.020706 -14.722589
 152.262500 -0.894976 143.562617 -49.480252 140.352331 -54.099685 144.790969
           -49.466883 140.196094 -0.035501 -25.093423 -82.648766 59.957696
           -54.130479 145.232072 -83.250351 72.485310 -0.017362 -15.086771
 156.006250 -0.902811 142.632703 -49.046240 139.637158 -53.681220 144.441822
           -49.028877 139.806560 -0.032831 -25.697372 -82.157228 69.298662
           -53.745931 144.627036 -82.774872 75.848395 -0.021758 -15.476679
 159.750000 -0.913539 141.675735 -48.622531 139.086100 -53.289998 143.822311
           -48.643860 139.021188 -0.035387 -26.318284 -81.403385 67.074693
           -53.311146 144.023067 -83.689249 75.099938 -0.024752 -15.861919
 163.493750 -0.922877 140.755421 -48.225093 138.252230 -52.859898 143.537702
           -48.253999 138.226247 -0.040939 -26.957760 -83.155805 68.607510
           -52.939811 143.612557 -82.126079 75.897433 -0.020747 -16.230273
 167.237500 -0.931786 139.783808 -47.836838 137.726862 -52.496535 142.843689
           -47.866303 137.693024 -0.042589 -27.559331 -82.003118 69.415078
           -52.498108 142.772529 -84.403267 79.384249 -0.023397 -16.625012
 170.981250 -0.940892 138.821380 -47.461570 137.085142 -52.136773 142.356298
           -47.484605 137.035968 -0.042295 -28.146394 -82.630588 76.936844
           -52.106398 142.725560 -82.538206 74.942752 -0.025933 -16.975943
 174.725000 -0.949667 137.852096 -47.092716 136.434206 -51.783686 141.867220
           -47.101639 136.595824 -0.042563 -28.773894 -82.974368 79.091376
           -51.793486 142.109215 -83.123129 77.246452 -0.022903 -17.379607
 178.468750 -0.960548 136.897175 -46.697488 135.757169 -51.365945 141.317158
           -46.733587 135.819026 -0.043401 -29.406871 -83.845570 78.752495
           -51.404933 141.434274 -81.724223 69.473434 -0.026429 -17.758376
 182.212500 -0.971319 135.921271 -46.338120 134.991609 -51.051212 140.652272
           -46.382294 135.137789 -0.043444 -30.013456 -81.166433 75.936286
           -51.065557 140.839251 -82.911459 70.047994 -0.027831 -18.140197
 185.956250 -0.979844 134.940740 -46.009787 134.015613 -50.658095 140.169606
           -46.037828 134.164097 -0.044940 -30.633554 -82.049061 72.775190
           -50.703336 140.304594 -81.906260 73.111554 -0.029305 -18.518846
 189.700000 -0.990416 133.953256 -45.658653 133.507118 -50.338880 139.268657
           -45.706051 133.639419 -0.048755 -31.247031 -81.458424 71.581950
           -50.378020 139.715766 -82.065938 75.492669 -0.030019 -18.907367
 193.443750 -1.001734 132.956585 -45.307618 132.859894 -50.016720 138.878269
           -45.309010 132.932392 -0.050679 -31.861599 -82.133623 76.195802
           -50.049124 139.050419 -82.783595 69.987514 -0.031458 -19.288263
 197.187500 -1.011329 131.942815 -44.980693 131.995401 -49.653325 138.237664
           -44.999963 132.036243 -0.048112 -32.476819 -82.920995 69.567616
           -49.697456 138.315296 -82.174197 76.265402 -0.030137 -19.659703
 200.931250 -1.022181 130.944314 -44.641523 131.332994 -49.373117 137.756066
           -44.668617 131.406386 -0.048824 -33.096834 -82.030491 67.120779
           -49.384938 137.795594 -82.450528 66.515899 -0.028415 -20.028396
 204.675000 -1.031402 129.932305 -44.308281 130.587215 -49.041643 137.299181
           -44.345271 130.701628 -0.049933 -33.716143 -82.509072 77.166559
           -49.061557 137.364366 -82.055366 74.090976 -0.029081 -20.428324
 208.418750 -1.043190 128.891532 -44.001394 129.821047 -48.717023 136.515906
           -44.017307 129.840812 -0.054353 -34.339580 -80.931113 73.214636
           -48.733827 136.692061 -81.751178 74.140009 -0.030419 -20.811525
 212.162500 -1.054703 127.885592 -43.722840 129.076602 -48.417619 135.929389
           -43.725370 129.156489 -0.055211 -34.943712 -80.686696 77.923303
           -48.432079 136.128518 -81.978482 66.103299 -0.033092 -21.203704
 215.906250 -1.062975 126.858669 -43.419631 128.335674 -48.078904 135.251518
           -43.422878 128.466036 -0.058232 -35.540604 -81.652121 74.301034
           -48.125543 135.473696 -83.501062 77.753894 -0.034845 -21.572351
 219.650000 -1.073136 125.804469 -43.085120 127.734097 -47.830992 134.811819
           -43.110725 127.721544 -0.056813 -36.144691 -82.687919 78.733635
           -47.821254 134.866729 -82.607130 81.669198 -0.037252 -21.940112
 223.393750 -1.078329 124.773350 -42.782270 126.835464 -47.533686 134.106577
           -42.792768 126.999002 -0.058856 -36.779842 -81.414683 78.828574
           -47.551319 134.194546 -82.113297 68.874720 -0.037163 -22.298201
 227.137500 -1.094770 123.721478 -42.510237 126.074895 -47.227635 133.369705
           -42.517675 126.131272 -0.061267 -37.396022 -81.828792 73.881031
           -47.250114 133.607715 -80.795040 71.326853 -0.035687 -22.701141
 230.881250 -1.104045 122.653115 -42.212014 125.219268 -46.987232 132.809046
           -42.230455 125.365985 -0.066288 -38.020068 -80.623950 71.590825
           -46.960680 132.714655 -81.536899 73.437050 -0.036385 -23.086535
 234.625000 -1.116603 121.575193 -41.964183 124.375455 -46.688555 131.998313
           -41.980464 124.523010 -0.068264 -38.638168 -81.723958 83.590836
           -46.674707 132.165210 -82.308434 75.318418 -0.037946 -23.473726
 238.368750 -1.126703 120.494790 -41.656494 123.747685 -46.399321 131.468565
           -41.675932 123.787768 -0.064923 -39.193417 -80.401763 75.016890
           -46.430423 131.600668 -81.208420 74.383615 -0.038533 -23.828086
 242.112500 -1.135651 119.410441 -41.400442 122.946963 -46.133879 130.842830
           -41.396618 123.015677 -0.063437 -39.828577 -81.675859 78.988703
           -46.140795 130.932441 -81.435368 80.330109 -0.039822 -24.218609
 245.856250 -1.146125 118.307358 -41.130321 122.225532 -45.878627 130.131012
           -41.131190 122.322735 -0.068151 -40.464323 -82.121801 75.523979
           -45.902853 130.266793 -81.689827 76.645075 -0.041048 -24.626397
 249.600000 -1.160525 117.209080 -40.870165 121.382627 -45.605612 129.390648
           -40.872837 121.430671 -0.073612 -41.068846 -81.318901 74.821952
           -45.623973 129.501644 -81.182483 76.745191 -0.042008 -25.020014
 253.343750 -1.172697 116.096542 -40.607037 120.543937 -45.353161 128.854159
           -40.613474 120.627441 -0.076343 -41.651914 -81.879814 75.077326
           -45.362111 128.937756 -82.494420 78.663775 -0.047198 -25.380953
 257.087500 -1.184286 114.969380 -40.356034 119.696424 -45.102807 127.997090
           -40.368275 119.835745 -0.079625 -42.276317 -81.423146 78.790884
           -45.124081 128.040241 -80.963849 80.784900 -0.048557 -25.755061
 260.831250 -1.193800 113.851413 -40.109877 118.991574 -44.872280 127.513390
           -40.114534 119.054487 -0.076200 -42.855823 -81.654727 88.133224
           -44.884628 127.427340 -81.144927 80.245454 -0.048042 -26.135758
 264.575000 -1.203578 112.693919 -39.849900 118.209559 -44.621868 126.878632
           -39.851617 118.321283 -0.075432 -43.498698 -82.498974 87.650080
           -44.639298 126.894645 -83.029765 85.727517 -0.047995 -26.523536
 268.318750 -1.215171 111.555048 -39.590599 117.333705 -44.375089 126.144212
           -39.595026 117.411871 -0.076574 -44.137314 -83.002683 79.552833
           -44.397633 126.179909 -80.740772 86.992030 -0.049596 -26.916720
 272.062500 -1.225941 110.390483 -39.341867 116.491211 -44.122077 125.394371
           -39.341935 116.623689 -0.082987 -44.770830 -81.288816 84.614944
           -44.146845 125.360685 -82.785167 84.092038 -0.049793 -27.331567
 275.806250 -1.241582 109.220062 -39.118382 115.625456 -43.897476 124.521396
           -39.133560 115.687481 -0.090852 -45.363274 -80.308331 78.222095
           -43.901571 124.686704 -81.412842 79.146145 -0.051591 -27.729410
 279.550000 -1.248843 108.040764 -38.877759 114.863690 -43.671715 123.940918
           -38.895100 114.941594 -0.087345 -45.956930 -81.060352 84.589480
           -43.658705 124.108471 -81.414434 86.860983 -0.052995 -28.131802
 283.293750 -1.263354 106.858450 -38.648356 113.967820 -43.437151 123.179707
           -38.651365 114.066440 -0.096588 -46.572430 -80.218173 86.143337
           -43.455672 123.264695 -81.480595 85.958585 -0.057619 -28.522462
 287.037500 -1.273057 105.677031 -38.404117 113.218348 -43.196882 122.403237
           -38.412413 113.242864 -0.093777 -47.165888 -80.914339 87.250792
           -43.215939 122.468992 -81.754753 94.725863 -0.060935 -28.914903
 290.781250 -1.283098 104.451646 -38.176976 112.195588 -42.984256 121.779667
           -38.181809 112.263060 -0.093176 -47.793899 -80.857492 93.142437
           -42.995978 121.744332 -81.458117 89.966075 -0.062701 -29.270399
 294.525000 -1.296366 103.228370 -37.978883 111.399883 -42.778034 121.070667
           -37.982503 111.475818 -0.095728 -48.419196 -80.228605 92.139284
           -42.787334 121.184345 -81.076161 85.301560 -0.060697 -29.654407
 298.268750 -1.304799 102.018996 -37.725584 110.710696 -42.555040 120.335669
           -37.727062 110.751497 -0.098966 -49.026596 -80.429343 95.552409
           -42.555414 120.431841 -80.426103 95.661824 -0.058379 -30.051107
 302.012500 -1.316804 100.774283 -37.512255 109.715128 -42.337877 119.578849
           -37.510912 109.812256 -0.099119 -49.648432 -80.211826 97.705283
           -42.338737 119.542106 -80.653731 96.104552 -0.059940 -30.471865
 305.756250 -1.332969 99.508608 -37.301726 108.843108 -42.131036 118.902525
           -37.295953 108.897028 -0.103105 -50.292151 -80.623712 97.487295
           -42.140015 118.866739 -79.943794 99.542066 -0.062771 -30.872101
 309.500000 -1.344777 98.237342 -37.078644 107.862604 -41.906678 118.088504
           -37.074399 107.973584 -0.107931 -50.931367 -78.837434 97.221219
           -41.917113 118.192064 -80.906290 99.773831 -0.063944 -31.291798
 313.243750 -1.355988 96.943044 -36.883272 107.005069 -41.705093 117.327906
           -36.882965 107.117869 -0.118185 -51.565777 -80.674589 101.307791
           -41.710363 117.453063 -80.903261 98.033327 -0.067978 -31.695794
 316.987500 -1.376614 95.659211 -36.706644 106.043096 -41.497374 116.380400
           -36.710860 106.111461 -0.137529 -52.110486 -80.554924 101.909436
           -41.516295 116.426089 -80.236763 102.814446 -0.070882 -32.143906
 320.731250 -1.383393 94.411030 -36.458326 105.285329 -41.322015 115.478246
           -36.466698 105.354471 -0.124826 -52.613272 -80.495079 97.229352
           -41.325196 115.658794 -80.201386 101.195051 -0.083453 -32.555515
 324.475000 -1.397587 93.105010 -36.268018 104.401233 -41.112638 114.822904
           -36.271074 104.500093 -0.118434 -53.259085 -79.229663 100.540693
           -41.116388 114.928723 -80.006705 103.247502 -0.095930 -32.799015
 328.218750 -1.404238 91.802017 -36.058812 103.475295 -40.956671 114.130691
           -36.062671 103.588905 -0.115186 -53.888149 -79.772378 103.252507
           -40.950821 114.155182 -79.585252 105.935667 -0.080482 -33.163169
 331.962500 -1.413890 90.444194 -35.843370 102.489454 -40.752174 113.424836
