! TDS: K:\Engsetup\Winsaw\TQQ6103DS
! Channel 1
! Ports=1 2 3 
! FreqRange: 1610.0000,1980.0000
! Points=1601
! FailCode=0
! Topology=ALL_SE(123)
# MHz S DB R 50
1610.000000 -3.343084 17.562756 -48.713476 -158.268343 -38.692473 127.453928
           -48.710572 -158.501378 -1.095365 108.686168 -58.692196 17.123080
           -38.686843 127.467250 -58.734738 17.098555 -1.702427 106.704477
1610.231250 -3.348631 17.424540 -48.659044 -158.032029 -38.714882 127.494446
           -48.655392 -158.055508 -1.097431 108.642157 -58.621669 17.324746
           -38.692825 127.523320 -58.709845 17.696883 -1.693979 106.635383
1610.462500 -3.355614 17.275698 -48.600234 -157.886618 -38.740623 127.650483
           -48.607324 -157.912635 -1.098337 108.610490 -58.691738 17.510460
           -38.720873 127.683081 -58.714032 17.634665 -1.685541 106.576269
1610.693750 -3.361242 17.135831 -48.529168 -157.783023 -38.754793 127.958296
           -48.535129 -157.805758 -1.099161 108.585309 -58.612285 17.211920
           -38.744744 127.978137 -58.673860 17.502673 -1.675472 106.493136
1610.925000 -3.364223 16.994476 -48.471061 -157.827183 -38.766818 128.222130
           -48.486017 -157.814092 -1.099538 108.557606 -58.707502 17.632506
           -38.744939 128.286143 -58.642311 16.903380 -1.665281 106.384316
1611.156250 -3.369028 16.863856 -48.452863 -158.075650 -38.742055 128.613034
           -48.424340 -158.222027 -1.099262 108.527417 -58.809274 17.196346
           -38.734633 128.697213 -58.649355 17.604193 -1.655182 106.276836
1611.387500 -3.372128 16.730182 -48.409088 -158.406255 -38.721935 128.978363
           -48.435355 -158.438701 -1.099810 108.474944 -58.691243 17.457320
           -38.701097 129.037938 -58.787135 16.600306 -1.643842 106.161749
1611.618750 -3.370786 16.585017 -48.417763 -158.607964 -38.672944 129.343982
           -48.411268 -158.584366 -1.099896 108.442982 -58.771140 16.857317
           -38.655092 129.389388 -58.687085 17.355495 -1.637051 106.027580
1611.850000 -3.372096 16.453333 -48.402991 -158.962188 -38.616266 129.699687
           -48.413665 -159.100478 -1.098601 108.418911 -58.689654 17.170050
           -38.598678 129.681817 -58.701364 17.010928 -1.630461 105.874311
1612.081250 -3.371752 16.320885 -48.423597 -159.424822 -38.541023 129.940769
           -48.431819 -159.270178 -1.100564 108.376520 -58.659603 16.458934
           -38.528813 129.975081 -58.733841 16.860220 -1.623216 105.735103
1612.312500 -3.369852 16.175564 -48.455564 -159.582492 -38.454743 130.076355
           -48.482332 -159.750533 -1.096961 108.337931 -58.725048 16.855246
           -38.441507 130.109787 -58.707975 16.099018 -1.620787 105.570934
1612.543750 -3.365805 16.023362 -48.519549 -159.988933 -38.386850 130.161991
           -48.515405 -159.937463 -1.096982 108.298760 -58.722807 16.919315
           -38.361573 130.189913 -58.678740 16.571471 -1.619987 105.419167
1612.775000 -3.361953 15.875712 -48.592791 -160.247170 -38.303244 130.163557
           -48.589738 -160.373484 -1.096571 108.250288 -58.736378 17.073603
           -38.287429 130.125774 -58.721356 16.723648 -1.620112 105.262915
1613.006250 -3.357001 15.716148 -48.667801 -160.311796 -38.231873 129.950728
           -48.649986 -160.372211 -1.096586 108.207699 -58.752026 16.643759
           -38.224586 129.956356 -58.696613 16.803269 -1.622696 105.123072
1613.237500 -3.352071 15.552185 -48.723854 -160.282419 -38.192925 129.737637
           -48.736327 -160.403098 -1.094895 108.144252 -58.721191 16.367419
           -38.170340 129.726832 -58.732961 16.383107 -1.626586 104.990399
1613.468750 -3.346197 15.382020 -48.799050 -160.183155 -38.168043 129.534971
           -48.802021 -160.369746 -1.094751 108.098343 -58.755060 16.111986
           -38.144322 129.570758 -58.679020 16.444301 -1.630017 104.856982
1613.700000 -3.338247 15.191009 -48.842273 -160.272634 -38.144881 129.432140
           -48.835081 -160.263202 -1.094338 108.051126 -58.734140 16.697451
           -38.128343 129.465068 -58.752929 16.198315 -1.634123 104.749611
1613.931250 -3.332903 15.001941 -48.912869 -160.091724 -38.139667 129.412213
           -48.867911 -160.173034 -1.094521 107.999396 -58.619245 16.762739
           -38.113840 129.424676 -58.804614 15.963771 -1.637662 104.643668
1614.162500 -3.325095 14.784413 -48.972148 -159.843058 -38.122965 129.497301
           -48.929619 -160.079591 -1.096268 107.951466 -58.769353 15.993502
           -38.110934 129.506720 -58.746222 15.868067 -1.638878 104.550879
1614.393750 -3.319557 14.561609 -49.009783 -160.079443 -38.116354 129.647255
           -49.019798 -159.889801 -1.095452 107.893734 -58.780003 16.228871
           -38.096036 129.689918 -58.703034 15.740312 -1.638116 104.450736
1614.625000 -3.315663 14.330107 -49.036256 -160.185375 -38.069889 129.859517
           -49.040246 -160.080240 -1.095727 107.831812 -58.762802 16.514748
           -38.053876 129.896761 -58.772277 15.576281 -1.635525 104.347666
1614.856250 -3.310963 14.096185 -49.090623 -159.837304 -38.015454 130.133814
           -49.118141 -160.012963 -1.096068 107.775617 -58.789669 15.029970
           -38.004211 130.139742 -58.721181 16.359632 -1.633717 104.231104
1615.087500 -3.308853 13.849830 -49.173182 -159.856583 -37.950229 130.294293
           -49.209993 -159.747289 -1.098655 107.720820 -58.760742 15.709173
           -37.942189 130.263265 -58.755680 16.021383 -1.630960 104.110261
1615.318750 -3.309247 13.600445 -49.278174 -159.998748 -37.880177 130.381064
           -49.250458 -159.977785 -1.100810 107.663319 -58.865911 15.597806
           -37.864319 130.347009 -58.824371 16.140533 -1.629173 103.991848
1615.550000 -3.310853 13.339843 -49.330234 -159.756628 -37.815646 130.341691
           -49.348656 -159.841201 -1.100893 107.598922 -58.778285 15.339672
           -37.802089 130.373315 -58.787421 15.473433 -1.627841 103.836687
1615.781250 -3.312248 13.099859 -49.461112 -159.922364 -37.752825 130.305596
           -49.484149 -159.586574 -1.103606 107.536631 -58.842150 15.650131
           -37.727338 130.268621 -58.782538 15.781800 -1.632007 103.691198
1616.012500 -3.318131 12.845434 -49.582883 -159.581987 -37.681532 130.176924
           -49.579406 -159.716429 -1.107111 107.475654 -58.859265 15.390139
           -37.662204 130.195900 -58.842096 15.663573 -1.634482 103.540059
1616.243750 -3.322619 12.605101 -49.728354 -159.217637 -37.615592 130.049598
           -49.724720 -159.284332 -1.107636 107.430231 -58.886914 15.430920
           -37.617991 130.059478 -58.843796 15.681305 -1.640356 103.390966
1616.475000 -3.327701 12.374967 -49.843127 -158.586102 -37.575735 129.879024
           -49.808405 -158.417455 -1.114116 107.367023 -58.900745 15.502845
           -37.557848 129.924338 -58.868220 15.733965 -1.649674 103.260120
1616.706250 -3.334219 12.125555 -49.949821 -157.798044 -37.534703 129.672189
           -49.982936 -157.757377 -1.117988 107.302746 -58.860939 15.705403
           -37.515940 129.718827 -58.893532 15.474123 -1.660253 103.144946
1616.937500 -3.340473 11.891231 -50.042402 -156.794593 -37.487097 129.498017
           -50.032846 -156.728742 -1.122568 107.259529 -58.874130 15.295904
           -37.476918 129.471248 -58.862238 15.600643 -1.669554 103.059256
1617.168750 -3.349063 11.662199 -50.048489 -155.629187 -37.457458 129.305414
           -50.068849 -155.741389 -1.127956 107.207073 -58.830591 15.739240
           -37.451908 129.317601 -58.863229 15.422924 -1.679260 102.977559
1617.400000 -3.354955 11.441189 -50.086457 -155.087291 -37.431201 129.252923
           -50.089548 -154.856480 -1.131718 107.167606 -58.909520 15.324207
           -37.419101 129.245995 -58.953648 15.551118 -1.685478 102.908136
1617.631250 -3.361013 11.216494 -50.090694 -154.170122 -37.402872 129.117754
           -50.116152 -154.315500 -1.137700 107.121806 -58.871596 15.416301
           -37.389471 129.125475 -58.966073 15.371985 -1.691359 102.853141
1617.862500 -3.367601 10.975631 -50.146585 -153.450893 -37.375421 129.018647
           -50.107337 -153.175682 -1.142631 107.089105 -58.807646 15.424349
           -37.354289 129.019831 -58.883256 15.279821 -1.695571 102.798510
1618.093750 -3.375848 10.749586 -50.115009 -152.453860 -37.349970 128.926870
           -50.130580 -152.757314 -1.148214 107.061441 -58.987978 15.630934
           -37.327225 128.896131 -58.942533 15.609312 -1.698562 102.742025
1618.325000 -3.383053 10.516185 -50.126939 -151.682532 -37.316653 128.857315
           -50.117670 -151.692278 -1.152072 107.042616 -58.974869 15.512201
           -37.306404 128.877174 -58.897925 14.756812 -1.698374 102.691416
1618.556250 -3.391083 10.262223 -50.072749 -150.631606 -37.297306 128.732163
           -50.076100 -150.645279 -1.156203 107.012213 -58.957038 15.690685
           -37.271196 128.714921 -59.012371 15.555972 -1.696541 102.627782
1618.787500 -3.400705 10.030212 -50.035918 -149.774787 -37.268918 128.642484
           -50.021367 -149.805000 -1.158565 106.986256 -58.901713 14.773696
           -37.254187 128.654740 -58.928538 14.881287 -1.696782 102.565561
1619.018750 -3.411269 9.775282 -49.980204 -148.793566 -37.253391 128.594284
           -49.953885 -148.940987 -1.162468 106.960422 -58.899194 15.617993
           -37.236428 128.536987 -58.923682 15.274441 -1.695162 102.512627
1619.250000 -3.421553 9.532380 -49.866939 -148.024532 -37.235895 128.497180
           -49.889322 -148.247173 -1.165492 106.933544 -58.942196 15.227192
           -37.222485 128.496951 -58.828151 14.900654 -1.691699 102.453930
1619.481250 -3.435814 9.278490 -49.718875 -147.731941 -37.221297 128.484819
           -49.730960 -147.749254 -1.166541 106.897288 -58.787860 15.105539
           -37.202518 128.535849 -58.983458 15.331058 -1.686941 102.389798
1619.712500 -3.451662 9.028117 -49.592110 -147.178932 -37.207681 128.513103
           -49.619609 -147.363251 -1.170855 106.886215 -58.878795 15.489460
           -37.186231 128.493102 -58.891636 15.479916 -1.679998 102.310510
1619.943750 -3.469444 8.786187 -49.488581 -147.015748 -37.191993 128.596696
           -49.497242 -147.353351 -1.172285 106.850782 -58.934302 15.011681
           -37.176107 128.614716 -58.867083 14.973070 -1.674935 102.228718
1620.175000 -3.489912 8.546449 -49.398215 -147.198243 -37.153668 128.670012
           -49.415303 -147.012184 -1.175260 106.830303 -58.875641 14.823293
           -37.144242 128.663836 -58.865645 15.084452 -1.669335 102.156370
1620.406250 -3.511500 8.326166 -49.316954 -147.202027 -37.123108 128.737829
           -49.303022 -147.135959 -1.177060 106.798384 -58.914846 14.659993
           -37.109510 128.718317 -58.885719 14.589613 -1.660973 102.058451
1620.637500 -3.534155 8.111177 -49.204716 -147.285659 -37.089513 128.790461
           -49.202344 -147.342783 -1.179930 106.778615 -58.930819 14.777355
           -37.071000 128.809214 -58.900074 14.670200 -1.654457 101.952919
1620.868750 -3.558492 7.902327 -49.136950 -147.500586 -37.047450 128.829734
           -49.120627 -147.480549 -1.181434 106.759898 -58.934978 14.544343
           -37.033432 128.800422 -58.957937 14.482927 -1.647656 101.846780
1621.100000 -3.587437 7.715130 -49.055338 -147.548389 -37.008450 128.849499
           -49.059736 -147.456708 -1.183441 106.734413 -58.928771 14.703975
           -36.989507 128.844875 -58.924726 14.888728 -1.641758 101.738681
1621.331250 -3.616790 7.558815 -49.002519 -147.819408 -36.970603 128.777520
           -48.986678 -147.762936 -1.183257 106.716882 -58.960427 14.245059
           -36.955239 128.767604 -58.965211 14.906180 -1.633994 101.614415
1621.562500 -3.647816 7.415280 -48.867452 -148.295972 -36.938633 128.766425
           -48.895138 -148.282694 -1.184675 106.700734 -58.993605 14.473495
           -36.914796 128.769969 -58.920518 14.620227 -1.626767 101.495579
1621.793750 -3.679199 7.329120 -48.805579 -149.109239 -36.898763 128.773387
           -48.815480 -149.000097 -1.187625 106.659278 -58.925607 14.374822
           -36.875151 128.751408 -58.908130 14.731190 -1.621433 101.359162
1622.025000 -3.709560 7.281677 -48.796388 -149.671574 -36.867866 128.724119
           -48.795647 -149.865968 -1.189349 106.638253 -58.923810 14.313440
           -36.857705 128.703415 -58.896303 14.900127 -1.617371 101.224513
1622.256250 -3.734662 7.268780 -48.825080 -150.576432 -36.822312 128.714555
           -48.816953 -150.724449 -1.190855 106.609997 -58.958501 13.930015
           -36.816749 128.647845 -58.988383 14.310155 -1.613767 101.081519
1622.487500 -3.754736 7.291489 -48.919290 -151.418636 -36.806369 128.672342
           -48.926550 -151.396968 -1.192716 106.592173 -58.836909 14.392470
           -36.784485 128.683985 -58.966476 14.067022 -1.610999 100.939889
1622.718750 -3.766403 7.327440 -49.045998 -151.903050 -36.765581 128.684839
           -49.052509 -151.918199 -1.191711 106.566784 -58.928947 14.316983
           -36.747571 128.719816 -58.909121 14.310432 -1.608351 100.794435
1622.950000 -3.772947 7.359463 -49.211419 -151.893557 -36.729098 128.707183
           -49.233930 -152.152884 -1.192623 106.555992 -58.993689 14.049932
           -36.704956 128.697387 -58.928137 14.041895 -1.607172 100.647969
1623.181250 -3.770490 7.376706 -49.394827 -151.419778 -36.686028 128.712082
           -49.353276 -151.448040 -1.192810 106.544638 -58.928147 14.148039
           -36.669901 128.687357 -58.929246 14.006516 -1.606997 100.517699
1623.412500 -3.765890 7.373822 -49.469214 -150.435762 -36.642151 128.622638
           -49.464514 -150.668213 -1.194439 106.527883 -58.985770 13.918483
           -36.630113 128.681734 -58.963142 13.918513 -1.608174 100.379991
1623.643750 -3.756120 7.355841 -49.438804 -149.439524 -36.596594 128.581232
           -49.480471 -149.271143 -1.192917 106.514070 -59.028935 13.820906
           -36.586561 128.586345 -58.988269 14.016859 -1.606271 100.244720
1623.875000 -3.744291 7.281450 -49.383366 -148.433596 -36.557969 128.499980
           -49.369003 -148.480743 -1.190743 106.493777 -59.026897 13.639322
           -36.538356 128.527924 -59.005610 13.815544 -1.608881 100.106115
1624.106250 -3.732820 7.196351 -49.236687 -148.006380 -36.520222 128.336102
           -49.247971 -148.068623 -1.190747 106.474584 -59.001740 13.925245
           -36.499562 128.380875 -58.973986 13.840522 -1.609449 99.980033
1624.337500 -3.722339 7.084793 -49.139014 -147.955722 -36.494317 128.277287
           -49.121209 -148.154840 -1.187040 106.462231 -58.993151 13.750410
           -36.469450 128.231657 -58.928766 13.653256 -1.609842 99.839092
1624.568750 -3.710461 6.956391 -49.027531 -148.386553 -36.463728 128.108230
           -49.037489 -148.494042 -1.185754 106.433581 -59.024444 13.155887
           -36.449206 128.111250 -59.057985 13.732393 -1.611469 99.714613
1624.800000 -3.704465 6.811679 -49.010010 -148.908719 -36.444076 127.989610
           -48.993576 -148.866929 -1.182743 106.397835 -59.021938 13.307085
           -36.431868 127.990491 -59.028122 13.166958 -1.613526 99.578585
1625.031250 -3.693446 6.677292 -48.978569 -149.373541 -36.427770 127.934219
           -49.000283 -149.447739 -1.179767 106.378999 -58.923148 13.424058
           -36.411025 127.954858 -59.039299 13.360474 -1.615714 99.464810
1625.262500 -3.690140 6.522091 -48.980460 -149.735029 -36.417014 127.972696
           -48.976109 -149.798838 -1.179938 106.331873 -58.954463 13.815714
           -36.400259 127.950733 -59.019131 13.631643 -1.616869 99.336672
1625.493750 -3.684027 6.382945 -49.014199 -149.972829 -36.385366 128.019564
           -48.996555 -149.979191 -1.176800 106.304625 -59.013308 12.804885
           -36.369908 128.022920 -58.966701 13.653016 -1.620052 99.221428
1625.725000 -3.677598 6.225110 -49.033437 -150.111950 -36.353081 128.049184
           -49.041721 -150.188544 -1.174463 106.266981 -58.947563 13.586677
           -36.340470 128.066388 -58.984983 13.351747 -1.622691 99.102456
1625.956250 -3.672695 6.071845 -49.060015 -150.320392 -36.324509 128.015277
           -49.059970 -150.346040 -1.170798 106.221609 -59.027927 12.989310
           -36.309849 128.001848 -59.031537 13.844406 -1.625601 98.978481
1626.187500 -3.666049 5.903814 -49.086031 -150.523483 -36.299253 128.023426
           -49.088118 -150.245458 -1.170620 106.182421 -59.105707 12.552542
           -36.277784 128.020361 -59.052742 12.924487 -1.629777 98.871467
1626.418750 -3.660489 5.747630 -49.092459 -150.361180 -36.256473 128.009926
           -49.122618 -150.449844 -1.168974 106.150330 -59.008647 12.802768
           -36.243323 128.047168 -59.069299 12.714528 -1.632887 98.769457
1626.650000 -3.654646 5.584250 -49.120778 -150.419100 -36.225328 128.033047
           -49.119805 -150.439072 -1.167311 106.104912 -59.021547 13.478559
           -36.205535 128.021735 -59.051076 13.168425 -1.635393 98.672713
1626.881250 -3.648546 5.422166 -49.139860 -150.587354 -36.184288 128.025884
           -49.138260 -150.567950 -1.165789 106.070786 -59.063959 13.169810
           -36.167269 127.987686 -59.062760 12.525505 -1.636447 98.576798
1627.112500 -3.644020 5.258034 -49.132883 -150.668487 -36.150971 127.929761
           -49.156029 -150.700383 -1.164124 106.010238 -59.142929 12.949961
           -36.133757 127.986672 -59.063331 12.731178 -1.636775 98.478754
1627.343750 -3.638863 5.099308 -49.175322 -150.640375 -36.114049 127.915146
           -49.182343 -150.794338 -1.162762 105.975220 -59.087028 12.620459
           -36.103043 127.884896 -59.061676 13.032277 -1.636137 98.391402
1627.575000 -3.632682 4.929879 -49.230778 -150.805778 -36.090587 127.866015
           -49.211578 -150.726198 -1.161330 105.918019 -59.089546 12.989908
           -36.062363 127.861143 -59.162268 13.374487 -1.635251 98.295273
1627.806250 -3.625445 4.767069 -49.262129 -150.518776 -36.053479 127.806630
           -49.263318 -150.546962 -1.162113 105.869398 -59.069158 12.800361
           -36.032187 127.768143 -59.051692 12.854590 -1.634110 98.198703
1628.037500 -3.618944 4.578317 -49.286773 -150.232164 -36.018269 127.720417
           -49.279508 -150.380801 -1.160726 105.815783 -59.123795 12.715536
           -36.001841 127.725425 -59.059163 12.453800 -1.632896 98.089675
1628.268750 -3.613005 4.403304 -49.264159 -149.958653 -35.988951 127.704939
           -49.279169 -149.902790 -1.160004 105.773254 -59.112503 11.976870
           -35.974122 127.721509 -59.004421 12.367209 -1.629923 98.003628
1628.500000 -3.603749 4.208822 -49.237319 -150.057753 -35.961809 127.690297
           -49.241602 -149.923958 -1.161719 105.724508 -59.062632 12.457300
           -35.940271 127.659950 -59.114872 12.011484 -1.627185 97.897711
1628.731250 -3.598529 4.018061 -49.197807 -149.796082 -35.929594 127.667178
           -49.160439 -149.804314 -1.161542 105.679579 -59.079676 12.557060
           -35.911721 127.639400 -59.150485 12.247913 -1.623313 97.785458
1628.962500 -3.593242 3.816869 -49.134950 -149.941143 -35.892253 127.586090
           -49.147079 -149.906706 -1.163551 105.633796 -59.099467 12.333283
           -35.879459 127.596592 -59.140611 12.217344 -1.620510 97.669117
1629.193750 -3.589491 3.615668 -49.140780 -149.948022 -35.854798 127.538288
           -49.084429 -149.967353 -1.164140 105.591302 -59.148625 12.534067
           -35.837644 127.558033 -59.115221 12.299200 -1.615934 97.559225
1629.425000 -3.584367 3.428830 -49.124370 -150.070581 -35.824059 127.538617
           -49.115843 -150.263295 -1.166243 105.546790 -59.136047 12.164759
           -35.805146 127.499433 -59.177926 11.669999 -1.611906 97.457310
1629.656250 -3.581957 3.233141 -49.102557 -150.411715 -35.787951 127.476537
           -49.098410 -150.573555 -1.165859 105.513511 -59.083538 12.130430
           -35.777463 127.455499 -59.144025 11.977064 -1.607834 97.320422
