! TDS: K:\Engsetup\Winsaw\TQQ7101DS
! Channel 2
! Ports=1 2 3 
! FreqRange: 10.0000,6000.0000
! Points=1601
! FailCode=0
! Topology=ALL_SE(123)
# MHz S DB R 50
  10.000000 -0.3140 179.66 -92.8279 -106.25 -81.6498 170.82
           -84.7176 1.06 -0.0999 2.36 -84.1196 88.27
           -83.7524 -135.15 -87.2695 -51.02 -0.0500 0.22
  13.743750 -0.3206 179.18 -84.7780 159.73 -92.9776 21.19
           -83.5641 118.83 -0.0338 1.04 -93.9215 -123.11
           -91.7241 -127.71 -87.6578 149.84 -0.0375 -0.44
  17.487500 -0.3028 179.93 -98.8635 -73.39 -89.5398 150.65
           -105.6165 129.90 -0.0316 0.20 -100.5755 117.80
           -91.8315 -11.42 -89.5125 -179.16 0.0086 -0.88
  21.231250 -0.2767 179.15 -91.9522 147.17 -83.8716 146.78
           -103.1143 -98.04 -0.0810 -0.74 -87.4943 94.49
           -90.1281 16.06 -87.7501 140.46 -0.0040 -1.35
  24.975000 -0.3163 179.28 -85.9734 72.72 -86.4568 -83.03
           -85.0213 52.86 -0.0318 -1.02 -90.0303 -152.92
           -90.0604 174.87 -89.2936 31.27 -0.0148 -1.76
  28.718750 -0.3362 179.04 -82.9472 -57.23 -74.8019 -149.55
           -85.7398 -152.94 -0.0493 -1.69 -78.3527 172.54
           -76.8320 17.17 -77.1260 103.19 -0.0101 -2.21
  32.462500 -0.2892 179.10 -78.7356 58.20 -82.4745 -131.49
           -80.1153 -111.76 -0.0586 -2.15 -93.7411 -17.86
           -84.2588 15.79 -95.9396 134.71 -0.0099 -2.60
  36.206250 -0.2845 179.06 -97.0578 93.34 -84.5156 175.45
           -86.7467 97.49 -0.0336 -2.84 -84.2321 69.79
           -78.0105 86.60 -85.3744 73.05 -0.0380 -2.98
  39.950000 -0.2444 178.89 -86.4759 93.63 -80.2681 119.87
           -91.1149 -45.86 -0.0530 -3.02 -85.9520 51.70
           -81.4087 68.47 -86.0761 162.41 -0.0289 -3.46
  43.693750 -0.2820 178.75 -82.6254 -146.80 -77.9917 136.95
           -78.7186 -146.69 -0.0333 -3.59 -82.4116 118.21
           -81.2504 -14.76 -82.1431 118.38 -0.0270 -3.89
  47.437500 -0.2270 178.70 -89.5154 84.12 -84.6380 -72.35
           -85.3741 -144.13 -0.0369 -4.16 -82.9213 90.15
           -79.5182 -158.19 -91.0131 12.53 -0.0367 -4.37
  51.181250 -0.2368 178.57 -87.6226 -124.60 -82.8535 167.34
           -89.3666 100.37 -0.0653 -4.69 -87.7526 134.69
           -88.6479 -37.39 -79.8515 91.42 -0.0338 -4.70
  54.925000 -0.2301 178.52 -88.8621 154.84 -90.4185 -144.52
           -92.6798 -134.98 -0.0414 -5.02 -87.6712 148.77
           -81.2110 124.16 -79.1944 74.14 -0.0490 -5.13
  58.668750 -0.2674 178.50 -83.6803 -128.32 -95.2749 -22.71
           -89.7739 -127.10 -0.0619 -5.56 -75.4411 69.59
           -84.1996 166.62 -85.8408 105.06 -0.0260 -5.51
  62.412500 -0.3029 178.33 -88.0618 39.40 -75.8391 169.87
           -90.6364 68.37 -0.0459 -5.83 -86.0312 89.49
           -97.3318 -19.03 -93.9830 87.17 -0.0450 -5.90
  66.156250 -0.3077 178.30 -83.7465 145.53 -79.7163 -159.72
           -78.5148 106.59 -0.0588 -6.21 -82.7131 51.84
           -82.2880 128.31 -85.1987 116.34 -0.0392 -6.29
  69.900000 -0.3004 177.83 -80.7389 168.03 -82.3769 143.40
           -87.6533 153.61 -0.0430 -6.69 -84.0934 99.24
           -82.3091 134.33 -81.3350 55.19 -0.0471 -6.67
  73.643750 -0.2919 177.58 -88.2063 56.50 -88.1498 172.56
           -106.2441 -135.33 -0.0319 -7.07 -78.9345 59.64
           -79.5672 108.21 -81.4731 108.71 -0.0393 -7.11
  77.387500 -0.3046 177.49 -84.2100 155.48 -78.6536 169.85
           -92.4994 -15.47 -0.0426 -7.34 -82.7218 76.75
           -83.6718 139.58 -79.7020 62.64 -0.0281 -7.43
  81.131250 -0.3332 177.23 -90.7197 -122.81 -82.3336 -170.90
           -83.6302 177.11 -0.0529 -7.83 -77.8955 109.47
           -85.8732 100.54 -81.9749 100.60 -0.0380 -7.85
  84.875000 -0.3504 176.90 -78.9776 105.50 -83.5026 122.93
           -77.7880 172.42 -0.0310 -8.14 -76.8448 73.50
           -81.4635 172.97 -78.9889 109.24 -0.0187 -8.21
  88.618750 -0.3564 176.72 -88.0065 175.60 -77.7741 152.83
           -77.8225 154.13 -0.0324 -8.58 -82.8374 53.28
           -86.2991 167.47 -77.5510 86.87 -0.0238 -8.51
  92.362500 -0.3362 176.62 -87.1753 -120.34 -77.1056 179.35
           -79.0308 170.29 -0.0150 -8.77 -84.3245 49.77
           -86.2201 144.95 -74.9952 115.69 -0.0206 -8.83
  96.106250 -0.3822 176.46 -76.5472 177.80 -78.5172 157.20
           -76.6842 155.91 -0.0128 -9.30 -74.7054 50.07
           -82.9086 164.65 -77.7053 129.68 -0.0219 -9.23
  99.850000 -0.3306 176.33 -79.8462 163.99 -84.2566 116.92
           -82.3989 169.90 -0.0270 -9.63 -73.7416 66.15
           -92.4538 -175.34 -78.4492 103.75 -0.0352 -9.66
 103.593750 -0.3323 176.13 -79.3342 -178.35 -82.4979 133.80
           -84.8193 102.35 -0.0092 -9.87 -82.3619 68.78
           -85.9357 177.53 -81.7311 88.05 -0.0115 -9.94
 107.337500 -0.3662 175.91 -80.8839 150.83 -81.8076 170.09
           -78.4153 172.20 -0.0003 -10.22 -88.4810 83.85
           -79.7769 171.48 -73.5827 89.59 -0.0411 -10.49
 111.081250 -0.3641 175.68 -76.4707 149.54 -85.2253 114.87
           -76.6663 178.78 -0.0224 -10.80 -82.2389 78.76
           -79.9619 141.69 -77.1022 65.06 -0.0207 -10.83
 114.825000 -0.3525 175.43 -81.3350 177.02 -76.3478 155.70
           -76.2989 155.68 -0.0380 -11.11 -79.9367 73.10
           -76.9051 150.04 -77.0306 94.15 -0.0090 -11.21
 118.568750 -0.3784 175.44 -78.2688 152.90 -76.3987 142.68
           -74.3631 168.00 -0.0138 -11.37 -75.5888 77.70
           -76.4220 163.84 -76.2013 66.68 -0.0058 -11.49
 122.312500 -0.3800 175.37 -83.0638 157.80 -76.3823 179.36
           -77.4052 171.05 0.0005 -11.86 -81.4400 125.69
           -99.2457 -61.87 -72.7462 57.62 -0.0174 -12.05
 126.056250 -0.3680 175.17 -76.9234 168.72 -77.8188 156.65
           -82.5366 163.67 0.0212 -12.01 -77.8685 60.43
           -78.4045 160.49 -77.9727 96.01 -0.0210 -12.30
 129.800000 -0.3723 174.98 -75.3476 157.22 -76.5770 138.75
           -76.1857 -168.42 -0.0044 -12.53 -74.0046 70.87
           -75.5791 159.87 -80.1084 91.54 -0.0191 -12.49
 133.543750 -0.3595 174.95 -74.6490 142.01 -76.7098 170.76
           -76.7625 164.58 -0.0213 -12.97 -75.5982 56.63
           -82.7708 102.85 -73.5168 122.74 -0.0355 -12.99
 137.287500 -0.3479 174.78 -72.4203 157.11 -74.9658 140.31
           -76.8178 162.71 -0.0001 -13.40 -81.3660 75.99
           -76.1276 161.39 -75.5238 68.91 -0.0234 -13.41
 141.031250 -0.4168 174.66 -75.6065 179.55 -75.9151 134.39
           -74.3401 148.79 -0.0189 -13.75 -77.3996 80.26
           -75.5654 162.95 -79.8242 72.30 -0.0146 -13.80
 144.775000 -0.3425 174.55 -73.6050 167.91 -77.4681 162.01
           -76.1048 -177.78 0.0070 -14.11 -75.0649 64.73
           -78.8770 132.71 -73.7764 50.19 -0.0352 -14.10
 148.518750 -0.3426 174.24 -72.7492 -163.72 -72.9015 165.78
           -73.4892 147.26 -0.0214 -14.32 -74.5658 43.55
           -73.1217 128.03 -77.9326 55.53 -0.0214 -14.71
 152.262500 -0.4159 174.43 -74.0170 163.50 -73.8086 169.58
           -78.7719 167.71 -0.0068 -14.86 -77.4448 74.53
           -81.5578 133.04 -77.9032 72.99 -0.0207 -14.83
 156.006250 -0.3558 174.39 -72.2553 177.99 -73.1609 158.08
           -70.8471 157.21 -0.0376 -15.37 -76.4695 54.40
           -75.0100 164.04 -76.3747 84.70 -0.0371 -15.14
 159.750000 -0.4012 174.14 -73.7891 167.27 -71.5846 172.17
           -73.7214 153.54 -0.0045 -15.69 -78.4861 52.29
           -77.1468 161.60 -73.9647 76.37 -0.0128 -15.68
 163.493750 -0.3675 174.21 -70.4494 160.68 -73.7998 159.26
           -74.2010 155.55 -0.0213 -16.13 -74.4630 75.20
           -71.7989 170.66 -74.7640 83.26 -0.0393 -16.04
 167.237500 -0.4047 173.87 -72.9352 164.65 -73.9017 132.98
           -72.4218 147.88 -0.0091 -16.42 -75.9926 72.31
           -79.9658 161.55 -74.2168 84.30 -0.0301 -16.47
 170.981250 -0.3770 173.64 -73.8180 161.48 -71.8732 152.91
           -73.6170 157.37 -0.0271 -16.84 -75.4514 67.27
           -73.9773 163.85 -73.4906 81.05 -0.0222 -16.75
 174.725000 -0.3839 173.72 -72.0266 162.38 -72.6983 159.59
           -70.9102 177.44 -0.0263 -17.28 -74.8578 81.51
           -72.2879 153.82 -75.6171 76.14 -0.0216 -17.16
 178.468750 -0.3634 173.48 -72.2971 160.06 -76.1826 146.33
           -69.7042 155.49 -0.0128 -17.50 -72.8533 70.83
           -74.3861 159.91 -74.6339 59.54 -0.0235 -17.58
 182.212500 -0.3601 173.32 -70.7286 156.10 -71.6915 163.51
           -74.5652 164.94 -0.0133 -17.80 -78.1231 70.07
           -71.7980 176.65 -71.6709 55.27 -0.0345 -18.00
 185.956250 -0.3823 173.10 -70.8410 161.70 -72.7923 155.26
           -72.2565 152.70 -0.0030 -18.29 -73.8954 64.24
           -71.4300 158.58 -75.9508 71.32 -0.0319 -18.27
 189.700000 -0.3665 172.93 -71.0179 144.24 -71.6136 162.54
           -69.9011 155.47 -0.0259 -18.69 -77.1494 64.04
           -69.2810 151.69 -73.0503 83.89 -0.0266 -18.72
 193.443750 -0.3935 172.87 -71.9125 157.96 -71.7075 175.00
           -70.2369 155.58 -0.0255 -19.12 -74.3260 65.19
           -71.8140 159.53 -73.8617 62.25 -0.0214 -19.08
 197.187500 -0.3787 172.78 -69.1026 169.01 -70.3528 155.40
           -67.6983 166.56 -0.0154 -19.52 -73.6159 64.71
           -71.0860 149.36 -72.8194 68.77 -0.0267 -19.37
 200.931250 -0.3787 172.58 -68.6520 168.92 -69.2232 160.70
           -70.9929 171.70 -0.0050 -19.82 -73.4954 70.31
           -68.4633 162.88 -74.3199 79.07 -0.0336 -19.80
 204.675000 -0.3750 172.74 -70.0222 160.90 -70.6116 157.19
           -68.0258 167.67 -0.0478 -20.03 -73.2973 66.76
           -69.6141 157.93 -72.5040 34.67 -0.0574 -20.27
 208.418750 -0.3471 172.21 -68.6093 160.90 -70.1972 157.78
           -68.0776 159.88 -0.0348 -20.37 -76.7398 76.66
           -70.4066 155.00 -72.9814 57.38 -0.0275 -20.59
 212.162500 -0.3828 172.22 -68.8215 164.25 -69.3801 153.61
           -66.8745 150.39 -0.0391 -20.89 -75.1953 62.23
           -72.4512 153.37 -71.7482 62.43 -0.0585 -20.80
 215.906250 -0.3784 172.18 -68.4779 165.34 -69.4891 159.25
           -65.9413 159.21 -0.0288 -21.20 -73.0901 69.75
           -69.7119 155.67 -74.1852 71.81 -0.0613 -21.29
 219.650000 -0.3752 171.96 -69.0481 155.37 -67.3098 159.07
           -67.6372 159.11 -0.0198 -21.77 -70.9381 71.16
           -69.7960 161.63 -76.9077 93.40 -0.0224 -21.75
 223.393750 -0.3970 171.74 -68.1430 160.68 -69.2302 152.53
           -68.7903 165.53 -0.0403 -22.03 -72.6467 61.91
           -68.5797 146.80 -73.7223 70.25 -0.0233 -21.97
 227.137500 -0.4032 171.78 -66.8312 153.90 -70.0120 164.03
           -66.5117 159.26 -0.0135 -22.49 -74.8214 71.44
           -67.9110 164.91 -74.6115 86.43 -0.0560 -22.37
 230.881250 -0.3573 171.59 -66.9995 164.91 -67.1958 158.84
           -67.4415 152.32 -0.0169 -22.73 -70.8811 65.74
           -69.2886 158.55 -71.6059 57.89 -0.0713 -22.65
 234.625000 -0.3816 171.46 -68.6130 147.89 -68.6872 151.30
           -66.7112 159.69 -0.0477 -23.06 -72.3431 79.19
           -67.7013 166.87 -76.2928 44.85 -0.0443 -23.31
 238.368750 -0.4067 171.35 -67.6969 156.93 -67.2953 153.67
           -67.3725 161.31 -0.0255 -23.59 -75.1226 75.92
           -67.8429 157.21 -73.5297 42.78 -0.0384 -23.48
 242.112500 -0.3814 171.21 -65.5521 157.65 -67.3111 151.77
           -65.9539 157.86 -0.0187 -23.97 -70.8532 65.00
           -66.3679 157.83 -71.5482 56.22 -0.0499 -23.91
 245.856250 -0.3768 171.17 -66.3108 159.93 -68.5574 154.52
           -66.7668 147.01 -0.0244 -24.28 -74.6445 87.68
           -67.7101 151.45 -72.6256 78.68 -0.0467 -24.32
 249.600000 -0.3733 171.07 -67.0111 155.01 -66.7768 159.04
           -65.7096 163.76 -0.0338 -24.61 -71.8748 70.80
           -67.0221 145.52 -73.3393 55.28 -0.0406 -24.65
 253.343750 -0.4113 170.87 -67.2216 147.68 -68.0542 164.94
           -64.9524 159.87 -0.0252 -25.07 -73.3579 62.96
           -66.0691 159.76 -71.8650 79.60 -0.0297 -25.02
 257.087500 -0.3829 170.62 -65.0986 152.67 -65.7537 154.72
           -66.2371 154.25 -0.0192 -25.50 -71.0838 72.49
           -67.0187 152.55 -73.1940 53.90 -0.0496 -25.34
 260.831250 -0.3907 170.65 -65.0484 157.98 -66.1486 155.67
           -64.6362 156.33 -0.0562 -25.89 -71.0056 63.51
           -67.1887 147.05 -71.6728 55.12 -0.0352 -25.71
 264.575000 -0.3947 170.47 -64.9955 158.84 -65.9922 157.23
           -64.3418 159.36 -0.0632 -26.25 -72.4499 62.14
           -65.6519 155.35 -70.8607 59.22 -0.0327 -26.08
 268.318750 -0.3914 170.16 -65.1312 154.32 -66.1810 152.48
           -64.5811 152.37 -0.0679 -26.55 -72.0219 55.16
           -65.4829 150.04 -71.2557 57.46 -0.0388 -26.44
 272.062500 -0.4004 170.30 -64.7873 159.11 -65.3359 153.99
           -63.7482 156.60 -0.0507 -27.12 -71.3457 74.20
           -65.6385 155.83 -70.1654 70.55 -0.0402 -26.93
 275.806250 -0.3706 170.04 -64.3258 155.05 -65.5547 154.54
           -64.5780 155.55 -0.0403 -27.46 -69.6224 50.14
           -65.3526 151.41 -72.5017 61.08 -0.0434 -27.21
 279.550000 -0.3860 169.86 -64.1021 161.04 -65.5592 152.47
           -64.6488 151.08 -0.0314 -27.58 -71.4866 60.78
           -64.6198 157.01 -73.2823 61.12 -0.0529 -27.65
 283.293750 -0.4018 169.57 -64.5948 154.91 -64.4227 153.09
           -63.7670 153.10 -0.0425 -27.99 -73.0491 69.16
           -65.2093 153.15 -72.2789 54.32 -0.0672 -27.91
 287.037500 -0.3893 169.66 -63.7325 152.42 -64.9778 151.77
           -63.1891 160.15 -0.0466 -28.66 -68.7472 48.98
           -64.5201 148.87 -70.6859 50.37 -0.0580 -28.21
 290.781250 -0.3666 169.40 -63.5286 154.06 -63.3861 154.73
           -62.4878 151.46 -0.0487 -28.84 -71.1528 71.27
           -63.3651 150.82 -74.0385 44.36 -0.0450 -28.67
 294.525000 -0.3926 169.50 -63.4562 152.76 -64.7573 149.73
           -61.8123 152.01 -0.0676 -29.15 -69.8814 47.87
           -64.1815 152.01 -72.9006 66.96 -0.0595 -29.02
 298.268750 -0.4102 169.14 -63.4809 156.95 -64.9108 153.75
           -62.8260 157.60 -0.0474 -29.63 -71.9676 51.92
           -64.0519 150.63 -70.2401 46.20 -0.0390 -29.42
 302.012500 -0.4077 169.24 -62.2432 149.16 -63.2439 153.23
           -62.5950 155.07 -0.0626 -30.07 -71.6346 81.19
           -63.2646 156.35 -73.5194 86.09 -0.0583 -29.73
 305.756250 -0.4228 168.95 -62.6357 151.83 -64.1300 150.06
           -63.2648 153.38 -0.0379 -30.33 -70.1091 63.61
           -63.9151 148.42 -70.7342 66.12 -0.0529 -30.02
 309.500000 -0.4152 168.85 -62.4473 157.24 -62.8900 153.31
           -62.9827 153.79 -0.0506 -30.82 -72.2591 49.39
           -64.4849 146.65 -70.5626 61.67 -0.0447 -30.63
 313.243750 -0.3919 168.79 -62.1928 150.95 -63.1511 154.69
           -62.3012 154.22 -0.0294 -31.19 -70.4758 59.20
           -63.9297 145.73 -71.8254 75.49 -0.0736 -31.04
 316.987500 -0.3906 168.57 -61.2551 152.15 -62.5298 150.47
           -61.5945 157.03 -0.0254 -31.53 -72.4925 60.63
           -61.4335 145.50 -72.8645 75.80 -0.0596 -31.44
 320.731250 -0.4103 168.31 -61.9190 153.14 -62.4232 154.95
           -61.6412 148.39 -0.0398 -31.87 -71.5810 62.39
           -62.9418 141.67 -70.9310 74.38 -0.0483 -31.75
 324.475000 -0.3898 168.28 -62.0886 156.30 -61.7903 154.30
           -62.4452 151.12 -0.0411 -32.36 -70.9361 68.20
           -63.7340 147.11 -73.0016 65.52 -0.0675 -32.18
 328.218750 -0.4140 168.32 -61.1641 154.76 -62.5324 149.89
           -61.1468 153.24 -0.0519 -32.63 -70.6961 65.85
           -61.6693 145.39 -71.8135 52.23 -0.0645 -32.35
 331.962500 -0.3971 168.00 -61.1175 152.21 -61.6191 147.96
           -61.8993 150.39 -0.0513 -32.96 -70.3501 57.65
           -62.8212 152.42 -69.3608 53.94 -0.0542 -32.87
 335.706250 -0.4112 167.70 -60.5815 152.84 -61.7744 151.13
           -61.6148 156.29 -0.0348 -33.59 -71.7625 49.90
           -61.3034 155.64 -71.2055 64.26 -0.0597 -33.19
 339.450000 -0.4137 167.71 -60.5018 152.04 -61.8679 145.96
           -60.6736 152.86 -0.0671 -33.94 -70.8867 60.17
           -61.8314 152.28 -71.0215 63.22 -0.0743 -33.53
 343.193750 -0.4040 167.71 -60.9850 149.03 -60.8630 153.21
           -60.6723 155.13 -0.0460 -34.23 -69.7130 53.94
           -61.1908 146.93 -70.2587 54.32 -0.0634 -34.00
 346.937500 -0.4278 167.44 -60.4223 152.77 -61.1247 148.08
           -60.2141 152.12 -0.0498 -34.67 -70.4705 53.93
           -61.2946 147.95 -69.0747 59.85 -0.0802 -34.47
 350.681250 -0.3782 167.23 -60.1066 152.02 -61.2909 148.42
           -60.8740 148.45 -0.0569 -35.00 -70.4031 56.57
           -61.5137 150.34 -68.0224 62.47 -0.0955 -34.68
 354.425000 -0.3860 167.14 -59.7588 149.97 -60.9862 149.35
           -60.3576 146.90 -0.0409 -35.55 -69.3598 63.15
           -60.9474 148.29 -70.5656 70.52 -0.0605 -35.00
 358.168750 -0.4478 167.06 -59.8249 150.35 -60.8948 148.47
           -59.4501 153.13 -0.0528 -35.94 -71.8272 60.32
           -60.9372 148.41 -72.2058 66.82 -0.0654 -35.38
 361.912500 -0.3482 167.14 -59.0517 150.38 -60.9257 146.69
           -59.7794 151.74 -0.0760 -36.36 -69.4249 57.60
           -60.8942 147.93 -69.9451 65.06 -0.0715 -35.79
 365.656250 -0.3925 166.77 -59.5084 147.22 -60.6483 149.80
           -59.4134 147.30 -0.0558 -36.62 -70.1281 46.91
           -60.4454 148.68 -70.1875 58.44 -0.0661 -36.16
 369.400000 -0.4117 166.65 -59.2165 152.48 -60.6376 150.47
           -59.3411 148.37 -0.0617 -36.87 -70.2844 52.03
           -60.8354 150.16 -70.1691 55.72 -0.0648 -36.73
 373.143750 -0.4308 166.36 -59.2739 146.95 -59.5974 148.30
           -58.8519 149.11 -0.0577 -37.33 -70.3415 58.32
           -60.4591 147.34 -70.1335 59.97 -0.0848 -37.17
 376.887500 -0.4446 166.19 -59.2288 149.60 -60.0495 146.82
           -59.0288 148.61 -0.0672 -37.69 -70.5151 61.70
           -60.0923 145.49 -69.0709 44.30 -0.0827 -37.48
 380.631250 -0.4068 166.23 -58.9178 146.83 -60.4095 146.68
           -58.6031 143.56 -0.0591 -38.09 -68.1879 43.65
           -59.5573 149.74 -69.0050 58.43 -0.1131 -37.91
 384.375000 -0.3830 165.86 -59.3494 147.76 -59.2697 146.08
           -58.7915 146.43 -0.0774 -38.67 -70.8714 44.20
           -59.6718 147.68 -71.0595 66.75 -0.0988 -38.01
 388.118750 -0.4470 165.77 -58.0033 147.73 -59.2575 147.86
           -58.0624 146.60 -0.0410 -38.91 -69.2427 64.71
           -60.0117 145.41 -73.3483 60.69 -0.0923 -38.40
 391.862500 -0.3707 165.73 -58.4874 148.22 -58.9751 151.30
           -58.0177 145.71 -0.0620 -39.41 -69.4717 48.06
           -59.2279 146.30 -69.7519 41.63 -0.0608 -38.85
 395.606250 -0.3951 165.36 -57.8022 147.39 -59.4334 146.94
           -57.8288 149.29 -0.0914 -39.74 -70.5177 51.46
           -59.0243 144.71 -68.7741 59.37 -0.0920 -39.22
 399.350000 -0.4111 165.40 -57.5468 145.90 -59.3813 146.85
           -58.0535 150.32 -0.1373 -40.27 -68.9200 54.39
           -58.4261 143.57 -69.1401 45.28 -0.0485 -39.75
 403.093750 -0.3899 165.48 -58.0151 148.98 -59.3340 147.12
           -57.9704 145.93 -0.1035 -40.20 -70.2912 47.41
           -59.2827 147.68 -71.0067 40.00 -0.0784 -40.20
 406.837500 -0.3972 165.32 -57.8086 146.86 -58.8039 144.28
           -58.3007 147.59 -0.0979 -40.64 -68.9303 49.67
           -58.1617 147.08 -70.0071 61.66 -0.1224 -40.66
 410.581250 -0.4374 165.25 -57.3344 149.49 -58.6177 146.10
           -57.8117 146.58 -0.0944 -41.12 -72.8816 48.94
           -58.0303 148.79 -67.5595 46.72 -0.1735 -40.82
 414.325000 -0.4551 165.05 -57.0818 147.83 -58.0916 142.74
           -58.0117 145.75 -0.0637 -41.68 -69.7357 46.70
           -58.1952 145.25 -70.2331 63.51 -0.1454 -40.62
 418.068750 -0.4135 164.56 -57.3718 145.76 -58.1759 144.63
           -56.9250 142.63 -0.1012 -42.13 -70.9457 49.56
           -58.1330 148.16 -68.9479 53.68 -0.1272 -41.14
 421.812500 -0.4033 164.80 -56.7308 146.29 -58.0114 142.56
           -57.0868 141.71 -0.0953 -42.79 -69.8190 55.77
           -58.2206 146.39 -68.5378 50.73 -0.1069 -41.61
 425.556250 -0.4474 164.21 -57.0247 145.26 -57.9101 141.42
           -57.1528 145.35 -0.0964 -43.09 -70.4376 42.23
           -58.2442 148.63 -70.0084 46.37 -0.0882 -42.12
 429.300000 -0.4104 164.44 -56.9234 143.17 -56.9712 145.49
           -56.1366 144.65 -0.1705 -43.77 -69.8137 52.52
           -57.4549 144.71 -73.4089 36.75 -0.0804 -42.62
 433.043750 -0.4450 163.98 -56.5695 142.25 -57.3782 143.92
           -56.5805 146.90 -0.2527 -43.36 -68.9200 48.27
           -57.4431 143.57 -69.5021 38.46 -0.0987 -43.01
 436.787500 -0.4377 163.90 -56.3428 143.03 -57.3185 147.21
           -56.4783 146.50 -0.1300 -43.63 -69.7667 50.36
