! Touchstone file from project copper trace 20x11um with L=4000um
! Exported from HFSS 3D Layout Design 2022.2.2 / 2024-05-07
!
!   ////////////////////////
!  o-----------------------o
!  |                       |
!  |    Prepreg 970 LF     |   permittivity=3.4
!  |                       |   loss_tangent=0.003
!  |        o-----o        |
!  |        |/////| 11um   |
!  |        o-----o        |
!  |              ^        |
!  |              | 22um   |
!  |              v        |
!  o-----------------------o
!  /////////////////////////
!
# GHz S MA R 50.000000
! Terminal data exported
! Port[1] = Port_1
! Port[2] = Port_2
!
0.2  0.0064683  -52.3357832 0.9957385   -1.9920495 0.9957385   -1.9920495 0.0064692  -52.3256025 
0.4  0.0113820  -69.0530903 0.9950604   -3.9728059 0.9950604   -3.9728059 0.0114214  -69.1196277 
0.6  0.0168926  -76.8439988 0.9941051   -5.9361915 0.9941051   -5.9361915 0.0169390  -76.9616378 
0.8  0.0226538  -81.8779619 0.9930224   -7.8820659 0.9930224   -7.8820659 0.0226896  -81.9744166 
1.0  0.0285582  -85.7247125 0.9919100   -9.8135739 0.9919100   -9.8135739 0.0285828  -85.7746152 
1.2  0.0345589  -88.9646636 0.9908128  -11.7344659 0.9908128  -11.7344659 0.0345773  -88.9685788 
1.4  0.0406238  -91.8611178 0.9897426  -13.6477861 0.9897426  -13.6477861 0.0406415  -91.8274092 
1.6  0.0467252  -94.5467764 0.9886958  -15.5556035 0.9886958  -15.5556035 0.0467463  -94.4841574 
1.8  0.0528379  -97.0930326 0.9876640  -17.4591672 0.9876640  -17.4591672 0.0528648  -97.0083370 
2.0  0.0589396  -99.5403965 0.9866392  -19.3591135 0.9866392  -19.3591135 0.0589737  -99.4383385 
2.2  0.0650106 -101.9131172 0.9856147  -21.2555707 0.9856147  -21.2555707 0.0650527 -101.7966644 
2.4  0.0710341 -104.2265737 0.9845783  -23.1482763 0.9845783  -23.1482763 0.0710847 -104.0974165 
2.6  0.0769959 -106.4911308 0.9835079  -25.0376340 0.9835079  -25.0376340 0.0770553 -106.3500825 
2.8  0.0828836 -108.7142016 0.9824051  -26.9252236 0.9824051  -26.9252236 0.0829521 -108.5614945 
3.0  0.0886868 -110.9013756 0.9812931  -28.8109947 0.9812931  -28.8109947 0.0887646 -110.7368667 
3.2  0.0943961 -113.0570540 0.9801755  -30.6941217 0.9801755  -30.6941217 0.0944839 -112.8803608 
3.4  0.1000034 -115.1848185 0.9790486  -32.5742846 0.9790486  -32.5742846 0.1001016 -114.9954058 
3.6  0.1055015 -117.2876552 0.9779107  -34.4514169 0.9779107  -34.4514169 0.1056107 -117.0848884 
3.8  0.1108836 -119.3680962 0.9767620  -36.3255075 0.9767620  -36.3255075 0.1110046 -119.1512730 
4.0  0.1161438 -121.4283152 0.9756035  -38.1965528 0.9756035  -38.1965528 0.1162772 -121.1966823 
4.2  0.1212762 -123.4701941 0.9744368  -40.0645484 0.9744368  -40.0645484 0.1214228 -123.2229558 
4.4  0.1262758 -125.4953730 0.9732638  -41.9294909 0.9732638  -41.9294909 0.1264363 -125.2316933 
4.6  0.1311375 -127.5052887 0.9720864  -43.7913783 0.9720864  -43.7913783 0.1313126 -127.2242903 
4.8  0.1358566 -129.5012053 0.9709070  -45.6502123 0.9709070  -45.6502123 0.1360472 -129.2019665 
5.0  0.1404289 -131.4842394 0.9697276  -47.5059989 0.9697276  -47.5059989 0.1406357 -131.1657898 
5.2  0.1448501 -133.4553808 0.9685506  -49.3587491 0.9685506  -49.3587491 0.1450738 -133.1166967 
5.4  0.1491163 -135.4155107 0.9673784  -51.2084794 0.9673784  -51.2084794 0.1493576 -135.0555098 
5.6  0.1532238 -137.3654162 0.9662132  -53.0552127 0.9662132  -53.0552127 0.1534834 -136.9829526 
5.8  0.1571691 -139.3058039 0.9650575  -54.8989780 0.9650575  -54.8989780 0.1574478 -138.8996630 
6.0  0.1609490 -141.2373104 0.9639137  -56.7398113 0.9639137  -56.7398113 0.1612474 -140.8062040 
6.2  0.1645603 -143.1605127 0.9627840  -58.5777556 0.9627840  -58.5777556 0.1648792 -142.7030741 
6.4  0.1680002 -145.0759365 0.9616708  -60.4128609 0.9616708  -60.4128609 0.1683403 -144.5907156 
6.6  0.1712660 -146.9840630 0.9605763  -62.2451847 0.9605763  -62.2451847 0.1716281 -146.4695220 
6.8  0.1743553 -148.8853364 0.9595029  -64.0747917 0.9595029  -64.0747917 0.1747401 -148.3398445 
7.0  0.1772658 -150.7801688 0.9584528  -65.9017541 0.9584528  -65.9017541 0.1776741 -150.2019977 
7.2  0.1799953 -152.6689454 0.9574280  -67.7261515 0.9574280  -67.7261515 0.1804279 -152.0562647 
7.4  0.1825420 -154.5520290 0.9564306  -69.5480708 0.9564306  -69.5480708 0.1829999 -153.9029010 
7.6  0.1849042 -156.4297640 0.9554626  -71.3676061 0.9554626  -71.3676061 0.1853883 -155.7421380 
7.8  0.1870803 -158.3024796 0.9545258  -73.1848586 0.9545258  -73.1848586 0.1875915 -157.5741867 
8.0  0.1890690 -160.1704927 0.9536220  -74.9999366 0.9536220  -74.9999366 0.1896085 -159.3992398 
8.2  0.1908692 -162.0341113 0.9527530  -76.8129549 0.9527530  -76.8129549 0.1914379 -161.2174738 
8.4  0.1924797 -163.8936359 0.9519201  -78.6240350 0.9519201  -78.6240350 0.1930789 -163.0290510 
8.6  0.1938997 -165.7493623 0.9511250  -80.4333047 0.9511250  -80.4333047 0.1945307 -164.8341209 
8.8  0.1951286 -167.6015831 0.9503688  -82.2408976 0.9503688  -82.2408976 0.1957926 -166.6328205 
9.0  0.1961657 -169.4505895 0.9496527  -84.0469534 0.9496527  -84.0469534 0.1968642 -168.4252757 
9.2  0.1970108 -171.2966727 0.9489778  -85.8516168 0.9489778  -85.8516168 0.1977451 -170.2116008 
9.4  0.1976634 -173.1401249 0.9483448  -87.6550378 0.9483448  -87.6550378 0.1984350 -171.9918989 
9.6  0.1981236 -174.9812409 0.9477546  -89.4573712 0.9477546  -89.4573712 0.1989340 -173.7662609 
9.8  0.1983913 -176.8203183 0.9472075  -91.2587761 0.9472075  -91.2587761 0.1992420 -175.5347649 
10.0 0.1984665 -178.6576590 0.9467041  -93.0594155 0.9467041  -93.0594155 0.1993592 -177.2974748 
10.2 0.1983497  179.5064303 0.9462445  -94.8594562 0.9462445  -94.8594562 0.1992858 -179.0544387 
10.4 0.1980410  177.6716380 0.9458287  -96.6590680 0.9458287  -96.6590680 0.1990222  179.1943133 
10.6 0.1975410  175.8376462 0.9454566  -98.4584237 0.9454566  -98.4584237 0.1985688  177.4487717 
10.8 0.1968502  174.0041311 0.9451277 -100.2576980 0.9451277 -100.2576980 0.1979261  175.7089503 
11.0 0.1959693  172.1707621 0.9448416 -102.0570679 0.9448416 -102.0570679 0.1970948  173.9748900 
11.2 0.1948990  170.3372015 0.9445974 -103.8567115 0.9445974 -103.8567115 0.1960756  172.2466630 
11.4 0.1936403  168.5031044 0.9443942 -105.6568078 0.9443942 -105.6568078 0.1948692  170.5243775 
11.6 0.1921940  166.6681182 0.9442309 -107.4575361 0.9442309 -107.4575361 0.1934767  168.8081828 
11.8 0.1905612  164.8318823 0.9441059 -109.2590755 0.9441059 -109.2590755 0.1918988  167.0982763 
12.0 0.1887432  162.9940277 0.9440178 -111.0616044 0.9440178 -111.0616044 0.1901368  165.3949099 
12.2 0.1867410  161.1541762 0.9439646 -112.8652998 0.9439646 -112.8652998 0.1881919  163.6983984 
12.4 0.1845562  159.3119403 0.9439444 -114.6703367 0.9439444 -114.6703367 0.1860652  162.0091291 
12.6 0.1821902  157.4669218 0.9439547 -116.4768875 0.9439547 -116.4768875 0.1837583  160.3275720 
12.8 0.1796445  155.6187113 0.9439930 -118.2851214 0.9439930 -118.2851214 0.1812726  158.6542921 
13.0 0.1769210  153.7668861 0.9440567 -120.0952035 0.9440567 -120.0952035 0.1786099  156.9899636 
