! Touchstone file exported from HFSS 2022.2.2 for SMD LQP01HQ16N
!        Project:           LQP01HQ16N.aedt
!        Generated:         May 08, 2024
!        Delta S:           0.002
!        Tetrahedron Count: 22012
!
# GHz S MA R 50.000000
! Terminal data exported
! Port[1] = Port_L
0.5  0.9301811  94.2220136 
0.6  0.9331626  83.7879387 
0.7  0.9364751  75.0808913 
0.8  0.9399724  67.7659983 
0.9  0.9435295  61.5646520 
1.0  0.9470487  56.2547769 
1.1  0.9504590  51.6626261 
1.2  0.9537125  47.6530276 
1.3  0.9567803  44.1206509 
1.4  0.9596475  40.9829519 
1.5  0.9623097  38.1747340 
1.6  0.9647699  35.6440396 
1.7  0.9670355  33.3490753 
1.8  0.9691171  31.2559094 
1.9  0.9710268  29.3367447 
2.0  0.9727774  27.5686129 
2.1  0.9743815  25.9323817 
2.2  0.9758517  24.4119931 
2.3  0.9771997  22.9938737 
2.4  0.9784364  21.6664741 
2.5  0.9795721  20.4199076 
2.6  0.9806159  19.2456614 
2.7  0.9815765  18.1363677 
2.8  0.9824615  17.0856171 
2.9  0.9832778  16.0878090 
3.0  0.9840318  15.1380277 
3.1  0.9847290  14.2319411 
3.2  0.9853746  13.3657173 
3.3  0.9859733  12.5359541 
3.4  0.9865290  11.7396212 
3.5  0.9870456  10.9740103 
3.6  0.9875264  10.2366939 
3.7  0.9879744   9.5254899 
3.8  0.9883924   8.8384314 
3.9  0.9887828   8.1737408 
4.0  0.9891479   7.5298077 
4.1  0.9894897   6.9051698 
4.2  0.9898099   6.2984964 
4.3  0.9901104   5.7085733 
4.4  0.9903926   5.1342913 
4.5  0.9906578   4.5746343 
4.6  0.9909073   4.0286702 
4.7  0.9911423   3.4955422 
4.8  0.9913638   2.9744612 
4.9  0.9915727   2.4646997 
5.0  0.9917700   1.9655854 
5.1  0.9919563   1.4764962 
5.2  0.9921326   0.9968557 
5.3  0.9922993   0.5261291 
5.4  0.9924572   0.0638190 
5.5  0.9926068  -0.3905369 
5.6  0.9927486  -0.8373702 
5.7  0.9928831  -1.2770830 
5.8  0.9930107  -1.7100511 
5.9  0.9931320  -2.1366262 
6.0  0.9932471  -2.5571374 
6.1  0.9933566  -2.9718935 
6.2  0.9934606  -3.3811842 
6.3  0.9935596  -3.7852818 
6.4  0.9936537  -4.1844424 
6.5  0.9937433  -4.5789071 
6.6  0.9938286  -4.9689034 
6.7  0.9939098  -5.3546457 
6.8  0.9939871  -5.7363366 
6.9  0.9940607  -6.1141677 
7.0  0.9941307  -6.4883201 
7.1  0.9941974  -6.8589657 
7.2  0.9942609  -7.2262670 
7.3  0.9943213  -7.5903785 
7.4  0.9943787  -7.9514470 
7.5  0.9944334  -8.3096118 
7.6  0.9944853  -8.6650054 
7.7  0.9945346  -9.0177543 
7.8  0.9945813  -9.3679786 
7.9  0.9946257  -9.7157932 
8.0  0.9946676 -10.0613076 
8.1  0.9947073 -10.4046264 
8.2  0.9947448 -10.7458496 
8.3  0.9947801 -11.0850729 
8.4  0.9948133 -11.4223880 
8.5  0.9948445 -11.7578826 
8.6  0.9948736 -12.0916409 
8.7  0.9949008 -12.4237437 
8.8  0.9949260 -12.7542686 
8.9  0.9949493 -13.0832902 
9.0  0.9949707 -13.4108801 
9.1  0.9949902 -13.7371074 
9.2  0.9950079 -14.0620386 
9.3  0.9950237 -14.3857378 
9.4  0.9950377 -14.7082667 
9.5  0.9950499 -15.0296851 
9.6  0.9950602 -15.3500506 
9.7  0.9950686 -15.6694188 
9.8  0.9950753 -15.9878436 
9.9  0.9950800 -16.3053772 
10.0 0.9950829 -16.6220702 
10.1 0.9950838 -16.9379714 
10.2 0.9950829 -17.2531284 
10.3 0.9950800 -17.5675872 
10.4 0.9950751 -17.8813926 
10.5 0.9950682 -18.1945880 
10.6 0.9950593 -18.5072159 
10.7 0.9950483 -18.8193173 
10.8 0.9950351 -19.1309323 
10.9 0.9950198 -19.4421000 
11.0 0.9950023 -19.7528585 
11.1 0.9949824 -20.0632448 
11.2 0.9949603 -20.3732952 
11.3 0.9949357 -20.6830452 
11.4 0.9949087 -20.9925293 
11.5 0.9948791 -21.3017813 
11.6 0.9948470 -21.6108344 
11.7 0.9948122 -21.9197210 
11.8 0.9947746 -22.2284727 
11.9 0.9947342 -22.5371208 
12.0 0.9946909 -22.8456957 
12.1 0.9946445 -23.1542273 
12.2 0.9945951 -23.4627450 
12.3 0.9945425 -23.7712777 
12.4 0.9944865 -24.0798536 
12.5 0.9944272 -24.3885007 
12.6 0.9943643 -24.6972463 
12.7 0.9942979 -25.0061173 
12.8 0.9942276 -25.3151404 
12.9 0.9941536 -25.6243416 
13.0 0.9940755 -25.9337466