! GJM0225C1C6R8BB01.s1p
! Touchstone file exported from HFSS
!        Generated:      
!        Design:         GJM0225C1C6R8BB01
!        Project:        GJM0225C1C6R8BB01
!        Setup:          
!        Solution:       Sweep 0.2-12GHz / step 200 MHz
!
# GHz S MA R 50.000000
! Terminal data exported
! Port[1] = Port_1
0.2 0.9990808 -51.8405488 
0.4 0.9914157 -88.7033119 
0.6 0.9863178 -111.9340595 
0.8 0.9833693 -126.9081960 
1 0.9816061 -137.1368635 
1.2 0.9804718 -144.5277667 
1.4 0.9796817 -150.1263702 
1.6 0.9790868 -154.5342298 
1.8 0.9786048 -158.1162540 
2 0.9781859 -161.1047545 
2.2 0.9777962 -163.6540602 
2.4 0.9774068 -165.8706348 
2.6 0.9769844 -167.8304694 
2.8 0.9764789 -169.5894583 
3 0.9758034 -171.1893990 
3.2 0.9748062 -172.6601676 
3.4 0.9732651 -174.0167100 
3.6 0.9710419 -175.2514740 
3.8 0.9685335 -176.3424681 
4 0.9667045 -177.3028986 
4.2 0.9659763 -178.1947548 
4.4 0.9659137 -179.0636277 
4.6 0.9660244 -179.9182622 
4.8 0.9660790 179.2458378 
5 0.9660138 178.4327928 
5.2 0.9658277 177.6441687 
5.4 0.9655361 176.8797785 
5.6 0.9651561 176.1385493 
5.8 0.9647018 175.4190455 
6 0.9641844 174.7197400 
6.2 0.9636122 174.0391442 
6.4 0.9629917 173.3758656 
6.6 0.9623277 172.7286277 
6.8 0.9616239 172.0962737 
7 0.9608833 171.4777607 
7.2 0.9601080 170.8721509 
7.4 0.9593000 170.2786015 
7.6 0.9584607 169.6963550 
7.8 0.9575911 169.1247297 
8 0.9566924 168.5631112 
8.2 0.9557654 168.0109449 
8.4 0.9548106 167.4677290 
8.6 0.9538288 166.9330091 
8.8 0.9528204 166.4063725 
9 0.9517859 165.8874435 
9.2 0.9507256 165.3758799 
9.4 0.9496401 164.8713689 
9.6 0.9485295 164.3736244 
9.8 0.9473943 163.8823838 
10 0.9462346 163.3974059 
10.2 0.9450509 162.9184686 
10.4 0.9438433 162.4453672 
10.6 0.9426122 161.9779123 
10.8 0.9413578 161.5159286 
11 0.9400803 161.0592535 
11.2 0.9387799 160.6077359 
11.4 0.9374571 160.1612349 
11.6 0.9361119 159.7196194 
11.8 0.9347446 159.2827666 
12 0.9333556 158.8505616 
